time	V(out)	V(n003)
0.000000000000000e+00	1.501499999981962e-11	0.000000000000000e+00
4.882812470324849e-12	3.827065426763369e-12	0.000000000000000e+00
9.765624940649698e-12	1.466308550346473e-13	0.000000000000000e+00
1.953124988129940e-11	2.932617132748237e-13	0.000000000000000e+00
3.906249976259879e-11	5.865234302258283e-13	0.000000000000000e+00
7.812499952519758e-11	1.173046864159650e-12	0.000000000000000e+00
1.562499990503952e-10	2.346093732015302e-12	0.000000000000000e+00
3.124999981007903e-10	4.692187467731439e-12	0.000000000000000e+00
6.249999962015806e-10	9.384374939159919e-12	0.000000000000000e+00
1.249999992403161e-09	1.876874988201254e-11	0.000000000000000e+00
2.499999984806323e-09	3.753749976769520e-11	0.000000000000000e+00
4.999999969612645e-09	7.507499953897272e-11	0.000000000000000e+00
9.999999939225290e-09	1.501499990811754e-10	0.000000000000000e+00
1.999999987845058e-08	3.002999981641718e-10	0.000000000000000e+00
3.999999975690116e-08	6.005999963245284e-10	0.000000000000000e+00
7.999999951380232e-08	1.201199992622696e-09	0.000000000000000e+00
1.599999990276046e-07	2.402399985128852e-09	0.000000000000000e+00
3.199999980552093e-07	4.804799969780443e-09	0.000000000000000e+00
6.399999961104186e-07	9.609599937823171e-09	0.000000000000000e+00
1.128281246110419e-06	1.694114289969510e-08	0.000000000000000e+00
1.616562496110419e-06	2.427268585829234e-08	0.000000000000000e+00
2.104843746110419e-06	3.160422881330613e-08	0.000000000000000e+00
2.593124996110419e-06	3.893577176473649e-08	0.000000000000000e+00
3.081406246110419e-06	4.626731471258341e-08	0.000000000000000e+00
3.569687496110419e-06	5.359885765684689e-08	0.000000000000000e+00
4.057968746110418e-06	6.093040059752692e-08	0.000000000000000e+00
4.546249996110419e-06	6.826194353462354e-08	0.000000000000000e+00
5.034531246110419e-06	7.559348646813671e-08	0.000000000000000e+00
5.522812496110420e-06	8.292502939806648e-08	0.000000000000000e+00
6.011093746110420e-06	9.025657232441277e-08	0.000000000000000e+00
6.499374996110420e-06	9.758811524717566e-08	0.000000000000000e+00
6.987656246110421e-06	1.049196581663551e-07	0.000000000000000e+00
7.475937496110421e-06	1.122512010819511e-07	0.000000000000000e+00
7.964218746110422e-06	1.195827439939636e-07	0.000000000000000e+00
8.452499996110422e-06	1.269142869023927e-07	0.000000000000000e+00
8.940781246110423e-06	1.342458298072384e-07	0.000000000000000e+00
9.429062496110423e-06	1.415773727085006e-07	0.000000000000000e+00
9.917343746110423e-06	1.489089156061794e-07	0.000000000000000e+00
1.040562499611042e-05	1.562404585002748e-07	0.000000000000000e+00
1.089390624611042e-05	1.635720013907867e-07	0.000000000000000e+00
1.138218749611042e-05	1.709035442777152e-07	0.000000000000000e+00
1.187046874611043e-05	1.782350871610602e-07	0.000000000000000e+00
1.235874999611043e-05	1.855666300408219e-07	0.000000000000000e+00
1.284703124611043e-05	1.928981729170001e-07	0.000000000000000e+00
1.333531249611043e-05	2.002297157895948e-07	0.000000000000000e+00
1.382359374611043e-05	2.075612586586062e-07	0.000000000000000e+00
1.431187499611043e-05	2.148928015240341e-07	0.000000000000000e+00
1.480015624611043e-05	2.222243443858786e-07	0.000000000000000e+00
1.528843749611043e-05	2.295558872441395e-07	0.000000000000000e+00
1.577671874611043e-05	2.368874300988171e-07	0.000000000000000e+00
1.626499999611043e-05	2.442189729499113e-07	0.000000000000000e+00
1.675328124611043e-05	2.515505157974221e-07	0.000000000000000e+00
1.724156249611043e-05	2.588820586413494e-07	0.000000000000000e+00
1.772984374611043e-05	2.662136014816933e-07	0.000000000000000e+00
1.821812499611043e-05	2.735451443184537e-07	0.000000000000000e+00
1.870640624611043e-05	2.808766871516306e-07	0.000000000000000e+00
1.919468749611043e-05	2.882082299812242e-07	0.000000000000000e+00
1.968296874611043e-05	2.955397728072342e-07	0.000000000000000e+00
2.017124999611043e-05	3.028713156296610e-07	0.000000000000000e+00
2.065953124611043e-05	3.102028584485042e-07	0.000000000000000e+00
2.114781249611043e-05	3.175344012637639e-07	0.000000000000000e+00
2.163609374611043e-05	3.248659440754403e-07	0.000000000000000e+00
2.212437499611043e-05	3.321974868835331e-07	0.000000000000000e+00
2.261265624611043e-05	3.395290296880426e-07	0.000000000000000e+00
2.310093749611044e-05	3.468605724889685e-07	0.000000000000000e+00
2.358921874611044e-05	3.541921152863110e-07	0.000000000000000e+00
2.407749999611044e-05	3.615236580800701e-07	0.000000000000000e+00
2.456578124611044e-05	3.688552008702458e-07	0.000000000000000e+00
2.505406249611044e-05	3.761867436568381e-07	0.000000000000000e+00
2.554234374611044e-05	3.835182864398469e-07	0.000000000000000e+00
2.603062499611044e-05	3.908498292192724e-07	0.000000000000000e+00
2.651890624611044e-05	3.981813719951144e-07	0.000000000000000e+00
2.700718749611044e-05	4.055129147673730e-07	0.000000000000000e+00
2.749546874611044e-05	4.128444575360481e-07	0.000000000000000e+00
2.798374999611044e-05	4.201760003011398e-07	0.000000000000000e+00
2.847203124611044e-05	4.275075430626480e-07	0.000000000000000e+00
2.896031249611044e-05	4.348390858205727e-07	0.000000000000000e+00
2.944859374611044e-05	4.421706285749141e-07	0.000000000000000e+00
2.993687499611044e-05	4.495021713256720e-07	0.000000000000000e+00
3.042515624611044e-05	4.568337140728464e-07	0.000000000000000e+00
3.091343749611044e-05	4.641652568164374e-07	0.000000000000000e+00
3.140171874611044e-05	4.714967995564452e-07	0.000000000000000e+00
3.188999999611044e-05	4.788283422928695e-07	0.000000000000000e+00
3.237828124611044e-05	4.861598850257102e-07	0.000000000000000e+00
3.286656249611044e-05	4.934914277549674e-07	0.000000000000000e+00
3.335484374611044e-05	5.008229704806415e-07	0.000000000000000e+00
3.384312499611044e-05	5.081545132027320e-07	0.000000000000000e+00
3.433140624611044e-05	5.154860559212389e-07	0.000000000000000e+00
3.481968749611044e-05	5.228175986361626e-07	0.000000000000000e+00
3.530796874611044e-05	5.301491413475024e-07	0.000000000000000e+00
3.579624999611044e-05	5.374806840552589e-07	0.000000000000000e+00
3.628453124611044e-05	5.448122267594321e-07	0.000000000000000e+00
3.677281249611044e-05	5.521437694600217e-07	0.000000000000000e+00
3.726109374611044e-05	5.594753121570283e-07	0.000000000000000e+00
3.774937499611044e-05	5.668068548504515e-07	0.000000000000000e+00
3.823765624611045e-05	5.741383975402911e-07	0.000000000000000e+00
3.872593749611045e-05	5.814699402265471e-07	0.000000000000000e+00
3.921421874611045e-05	5.888014829092195e-07	0.000000000000000e+00
3.970249999611045e-05	5.961330255883087e-07	0.000000000000000e+00
4.019078124611045e-05	6.034645682638143e-07	0.000000000000000e+00
4.067906249611045e-05	6.107961109357366e-07	0.000000000000000e+00
4.116734374611045e-05	6.181276536040755e-07	0.000000000000000e+00
4.165562499611045e-05	6.254591962688310e-07	0.000000000000000e+00
4.214390624611045e-05	6.327907389300030e-07	0.000000000000000e+00
4.263218749611045e-05	6.401222815875916e-07	0.000000000000000e+00
4.312046874611045e-05	6.474538242415967e-07	0.000000000000000e+00
4.360874999611045e-05	6.547853668920184e-07	0.000000000000000e+00
4.409703124611045e-05	6.621169095388566e-07	0.000000000000000e+00
4.458531249611045e-05	6.694484521821116e-07	0.000000000000000e+00
4.507359374611045e-05	6.767799948217826e-07	0.000000000000000e+00
4.556187499611045e-05	6.841115374578704e-07	0.000000000000000e+00
4.605015624611045e-05	6.914430800903749e-07	0.000000000000000e+00
4.653843749611045e-05	6.987746227192960e-07	0.000000000000000e+00
4.702671874611045e-05	7.061061653446336e-07	0.000000000000000e+00
4.751499999611045e-05	7.134377079663877e-07	0.000000000000000e+00
4.800328124611045e-05	7.207692505845585e-07	0.000000000000000e+00
4.849156249611045e-05	7.281007931991458e-07	0.000000000000000e+00
4.897984374611045e-05	7.354323358101495e-07	0.000000000000000e+00
4.946812499611046e-05	7.427638784175698e-07	0.000000000000000e+00
4.995640624611046e-05	7.500954210214069e-07	0.000000000000000e+00
5.044468749611046e-05	7.574269636216605e-07	0.000000000000000e+00
5.093296874611046e-05	7.647585062183306e-07	0.000000000000000e+00
5.142124999611046e-05	7.720900488114173e-07	0.000000000000000e+00
5.190953124611046e-05	7.794215914009206e-07	0.000000000000000e+00
5.239781249611046e-05	7.867531339868402e-07	0.000000000000000e+00
5.288609374611046e-05	7.940846765691765e-07	0.000000000000000e+00
5.337437499611046e-05	8.014162191479296e-07	0.000000000000000e+00
5.386265624611046e-05	8.087477617230990e-07	0.000000000000000e+00
5.435093749611046e-05	8.160793042946853e-07	0.000000000000000e+00
5.483921874611046e-05	8.234108468626879e-07	0.000000000000000e+00
5.532749999611046e-05	8.307423894271071e-07	0.000000000000000e+00
5.581578124611046e-05	8.380739319879428e-07	0.000000000000000e+00
5.630406249611046e-05	8.454054745451949e-07	0.000000000000000e+00
5.679234374611046e-05	8.527370170988636e-07	0.000000000000000e+00
5.728062499611046e-05	8.600685596489489e-07	0.000000000000000e+00
5.776890624611046e-05	8.674001021954509e-07	0.000000000000000e+00
5.825718749611046e-05	8.747316447383695e-07	0.000000000000000e+00
5.874546874611046e-05	8.820631872777047e-07	0.000000000000000e+00
5.923374999611046e-05	8.893947298134567e-07	0.000000000000000e+00
5.972203124611046e-05	8.967262723456248e-07	0.000000000000000e+00
6.021031249611046e-05	9.040578148742097e-07	0.000000000000000e+00
6.069859374611047e-05	9.113893573992111e-07	0.000000000000000e+00
6.118687499611046e-05	9.187208999206291e-07	0.000000000000000e+00
6.167515624611046e-05	9.260524424384636e-07	0.000000000000000e+00
6.216343749611046e-05	9.333839849527148e-07	0.000000000000000e+00
6.265171874611046e-05	9.407155274633824e-07	0.000000000000000e+00
6.313999999611046e-05	9.480470699704666e-07	0.000000000000000e+00
6.362828124611046e-05	9.553786124739676e-07	0.000000000000000e+00
6.411656249611046e-05	9.627101549738849e-07	0.000000000000000e+00
6.460484374611046e-05	9.700416974702189e-07	0.000000000000000e+00
6.509312499611046e-05	9.773732399629697e-07	0.000000000000000e+00
6.558140624611046e-05	9.847047824521367e-07	0.000000000000000e+00
6.606968749611046e-05	9.920363249377204e-07	0.000000000000000e+00
6.655796874611046e-05	9.993678674197206e-07	0.000000000000000e+00
6.704624999611046e-05	1.006699409898138e-06	0.000000000000000e+00
6.753453124611046e-05	1.014030952372971e-06	0.000000000000000e+00
6.802281249611046e-05	1.021362494844221e-06	0.000000000000000e+00
6.851109374611047e-05	1.028694037311887e-06	0.000000000000000e+00
6.899937499611047e-05	1.036025579775970e-06	0.000000000000000e+00
6.948765624611047e-05	1.043357122236470e-06	0.000000000000000e+00
6.997593749611047e-05	1.050688664693386e-06	0.000000000000000e+00
7.046421874611047e-05	1.058020207146719e-06	0.000000000000000e+00
7.095249999611047e-05	1.065351749596468e-06	0.000000000000000e+00
7.144078124611047e-05	1.072683292042633e-06	0.000000000000000e+00
7.192906249611047e-05	1.080014834485215e-06	0.000000000000000e+00
7.241734374611047e-05	1.087346376924214e-06	0.000000000000000e+00
7.290562499611047e-05	1.094677919359630e-06	0.000000000000000e+00
7.339390624611047e-05	1.102009461791462e-06	0.000000000000000e+00
7.388218749611047e-05	1.109341004219711e-06	0.000000000000000e+00
7.437046874611047e-05	1.116672546644376e-06	0.000000000000000e+00
7.485874999611047e-05	1.124004089065458e-06	0.000000000000000e+00
7.534703124611047e-05	1.131335631482956e-06	0.000000000000000e+00
7.583531249611047e-05	1.138667173896870e-06	0.000000000000000e+00
7.632359374611047e-05	1.145998716307202e-06	0.000000000000000e+00
7.681187499611047e-05	1.153330258713949e-06	0.000000000000000e+00
7.730015624611047e-05	1.160661801117114e-06	0.000000000000000e+00
7.778843749611047e-05	1.167993343516695e-06	0.000000000000000e+00
7.827671874611047e-05	1.175324885912692e-06	0.000000000000000e+00
7.876499999611047e-05	1.182656428305107e-06	0.000000000000000e+00
7.925328124611047e-05	1.189987970693937e-06	0.000000000000000e+00
7.974156249611048e-05	1.197319513079185e-06	0.000000000000000e+00
8.022984374611048e-05	1.204651055460848e-06	0.000000000000000e+00
8.071812499611048e-05	1.211982597838929e-06	0.000000000000000e+00
8.120640624611048e-05	1.219314140213426e-06	0.000000000000000e+00
8.169468749611048e-05	1.226645682584339e-06	0.000000000000000e+00
8.218296874611048e-05	1.233977224951670e-06	0.000000000000000e+00
8.267124999611048e-05	1.241308767315416e-06	0.000000000000000e+00
8.315953124611048e-05	1.248640309675580e-06	0.000000000000000e+00
8.364781249611048e-05	1.255971852032159e-06	0.000000000000000e+00
8.413609374611048e-05	1.263303394385156e-06	0.000000000000000e+00
8.462437499611048e-05	1.270634936734569e-06	0.000000000000000e+00
8.511265624611048e-05	1.277966479080398e-06	0.000000000000000e+00
8.560093749611048e-05	1.285298021422644e-06	0.000000000000000e+00
8.608921874611048e-05	1.292629563761307e-06	0.000000000000000e+00
8.657749999611048e-05	1.299961106096387e-06	0.000000000000000e+00
8.706578124611048e-05	1.307292648427883e-06	0.000000000000000e+00
8.755406249611048e-05	1.314624190755795e-06	0.000000000000000e+00
8.804234374611048e-05	1.321955733080124e-06	0.000000000000000e+00
8.853062499611048e-05	1.329287275400870e-06	0.000000000000000e+00
8.901890624611048e-05	1.336618817718032e-06	0.000000000000000e+00
8.950718749611048e-05	1.343950360031610e-06	0.000000000000000e+00
8.999546874611048e-05	1.351281902341605e-06	0.000000000000000e+00
9.048374999611048e-05	1.358613444648016e-06	0.000000000000000e+00
9.097203124611049e-05	1.365944986950844e-06	0.000000000000000e+00
9.146031249611049e-05	1.373276529250089e-06	0.000000000000000e+00
9.194859374611049e-05	1.380608071545750e-06	0.000000000000000e+00
9.243687499611049e-05	1.387939613837829e-06	0.000000000000000e+00
9.292515624611049e-05	1.395271156126323e-06	0.000000000000000e+00
9.341343749611049e-05	1.402602698411234e-06	0.000000000000000e+00
9.390171874611049e-05	1.409934240692562e-06	0.000000000000000e+00
9.438999999611049e-05	1.417265782970306e-06	0.000000000000000e+00
9.487828124611049e-05	1.424597325244467e-06	0.000000000000000e+00
9.536656249611049e-05	1.431928867515045e-06	0.000000000000000e+00
9.585484374611049e-05	1.439260409782039e-06	0.000000000000000e+00
9.634312499611049e-05	1.446591952045450e-06	0.000000000000000e+00
9.683140624611049e-05	1.453923494305277e-06	0.000000000000000e+00
9.731968749611049e-05	1.461255036561521e-06	0.000000000000000e+00
9.780796874611049e-05	1.468586578814181e-06	0.000000000000000e+00
9.829624999611049e-05	1.475918121063258e-06	0.000000000000000e+00
9.878453124611049e-05	1.483249663308751e-06	0.000000000000000e+00
9.927281249611049e-05	1.490581205551118e-06	0.000000000000000e+00
9.951171874999999e-05	1.494168382596764e-06	0.000000000000000e+00
9.952218749222099e-05	1.494325570745560e-06	0.000000000000000e+00
9.954312497666300e-05	1.494639947043129e-06	0.000000000000000e+00
9.958499994554702e-05	1.495268699638242e-06	0.000000000000000e+00
9.966874988331505e-05	1.496526204828370e-06	0.000000000000000e+00
9.983624975885112e-05	1.499041215208439e-06	0.000000000000000e+00
9.983724975885112e-05	1.499056230206939e-06	0.000000000000000e+00
9.983924975885112e-05	1.499086260203937e-06	0.000000000000000e+00
9.984324975885112e-05	1.499146320197933e-06	0.000000000000000e+00
9.985124975885112e-05	1.499266440185925e-06	0.000000000000000e+00
9.986724975885112e-05	1.499506680161907e-06	0.000000000000000e+00
9.989924975885112e-05	1.499987160113859e-06	0.000000000000000e+00
9.993599999999999e-05	1.500538964929517e-06	0.000000000000000e+00
9.993699999999999e-05	1.500553979928015e-06	0.000000000000000e+00
9.993899999999999e-05	1.500584009925011e-06	0.000000000000000e+00
9.994299999999999e-05	1.500644069919003e-06	0.000000000000000e+00
9.995099999999999e-05	1.500764189906983e-06	0.000000000000000e+00
9.996699999999999e-05	1.501004429882942e-06	0.000000000000000e+00
9.996799999999999e-05	1.501019444881439e-06	0.000000000000000e+00
9.996999999999999e-05	1.501049474878434e-06	0.000000000000000e+00
9.997400000000000e-05	1.501109534872424e-06	0.000000000000000e+00
9.998200000000002e-05	1.501229654860403e-06	0.000000000000000e+00
9.998399999999996e-05	1.501259684857396e-06	0.000000000000000e+00
9.998799999999983e-05	1.501319744851382e-06	0.000000000000000e+00
9.999200000000024e-05	1.501379804845376e-06	0.000000000000000e+00
9.999300000000025e-05	1.501394819843873e-06	0.000000000000000e+00
9.999500000000025e-05	1.501424849840867e-06	0.000000000000000e+00
9.999600000000000e-05	1.501439864839361e-06	0.000000000000000e+00
9.999799999999949e-05	1.501469894836347e-06	0.000000000000000e+00
9.999899999999949e-05	1.501484909834844e-06	0.000000000000000e+00
9.999999999999999e-05	1.501499924833348e-06	0.000000000000000e+00
1.000000002750083e-04	1.501499928962597e-06	4.125123907825629e-03
1.000000008250248e-04	1.501499937221094e-06	1.237537172347689e-02
1.000000019250578e-04	1.501499953738089e-06	2.887586715149149e-02
1.000000041251239e-04	1.501499986772077e-06	6.187685821080861e-02
1.000000085252560e-04	1.501500054615386e-06	1.278788401261549e-01
1.000000101443473e-04	1.501500084727099e-06	1.521652099570510e-01
1.000000121228995e-04	1.501500133711742e-06	1.818434922903683e-01
1.000000130987407e-04	1.501500169988383e-06	1.964811103936535e-01
1.000000143021222e-04	1.501500238975373e-06	2.145318332566958e-01
1.000000153863549e-04	1.501500332911531e-06	2.307953232417699e-01
1.000000162819722e-04	1.501500457523460e-06	2.442295836597476e-01
1.000000173629912e-04	1.501500703262864e-06	2.604448683899297e-01
1.000000184003171e-04	1.501501097323580e-06	2.760047559561629e-01
1.000000194131424e-04	1.501501756323857e-06	2.911971355777469e-01
1.000000204308932e-04	1.501502884552777e-06	3.064633975465112e-01
1.000000213988127e-04	1.501504715779008e-06	3.209821912252128e-01
1.000000224216140e-04	1.501507983841642e-06	3.363242102622389e-01
1.000000235030574e-04	1.501513814077812e-06	3.525458613598151e-01
1.000000248133877e-04	1.501526011727849e-06	3.722008159036220e-01
1.000000267232098e-04	1.501555382412896e-06	4.008481467896807e-01
1.000000288312697e-04	1.501606238650435e-06	4.324690461293820e-01
1.000000314090353e-04	1.501697731505428e-06	4.711355300844859e-01
1.000000343421498e-04	1.501847090295414e-06	5.151322465514691e-01
1.000000392085299e-04	1.502213787725195e-06	5.881279486449941e-01
1.000000484164698e-04	1.503315267252088e-06	7.262470475260380e-01
1.000000668323497e-04	1.507113979373467e-06	1.002485245288126e+00
1.000001036641094e-04	1.521070359422775e-06	1.554961640812301e+00
1.000001773276288e-04	1.574418949265260e-06	2.659914431657364e+00
1.000003246546676e-04	1.782859390624708e-06	4.869820013550779e+00
1.000006193087451e-04	2.529875881440675e-06	9.289631177134320e+00
1.000010000000000e-04	3.886495817779837e-06	1.500000000000000e+01
1.000010380691255e-04	4.082072317871460e-06	1.500000000000000e+01
1.000011142073765e-04	4.494964090132116e-06	1.500000000000000e+01
1.000012664838784e-04	5.427026016771112e-06	1.500000000000000e+01
1.000015710368823e-04	7.725924520167926e-06	1.500000000000000e+01
1.000021801428901e-04	1.406281545844602e-05	1.500000000000000e+01
1.000033983549056e-04	3.369293262377370e-05	1.500000000000000e+01
1.000058347789367e-04	1.007781352588662e-04	1.500000000000000e+01
1.000107076269989e-04	3.462446413073894e-04	1.500000000000000e+01
1.000204533231233e-04	1.282319244588431e-03	1.500000000000000e+01
1.000399447153722e-04	4.934490282908058e-03	1.500000000000000e+01
1.000789274998698e-04	1.935133498474966e-02	1.500000000000000e+01
1.001568930688651e-04	7.652293541136651e-02	1.500000000000000e+01
1.003128242068557e-04	3.025119777501767e-01	1.500000000000000e+01
1.006246864828370e-04	1.132849336520590e+00	1.500000000000000e+01
1.011129677328370e-04	3.198711316733091e+00	1.500000000000000e+01
